
T69B0 001:973 SEGGER J-Link V6.10i Log File (0012ms, 1937ms total)
T69B0 001:973 DLL Compiled: Oct 25 2016 19:31:51 (0012ms, 1937ms total)
T69B0 001:973 Logging started @ 2021-11-06 15:25 (0012ms, 1937ms total)
T69B0 001:985 JLINK_SetWarnOutHandler(...) (0000ms, 1937ms total)
T69B0 001:985 JLINK_OpenEx(...)
Firmware: J-Link V9 compiled Apr 22 2016 11:47:06
Hardware: V9.40
S/N: 59417745
Feature(s): RDI, GDB, FlashDL, FlashBP, JFlashWEBSRV Webserver running on local port 19080 (3244ms, 5181ms total)
T69B0 001:985   returns O.K. (3244ms, 5181ms total)
T69B0 005:229 JLINK_SetErrorOutHandler(...) (0000ms, 5181ms total)
T69B0 005:229 JLINK_ExecCommand("ProjectFile = "E:\F盘\防丢器\ZX-N52S_开发板资料\6.官方SDK\6.官方SDK\SDK15.0\nRF5SDK1500a53641a\nRF5_SDK_15.0.0_a53641a\examples\ble_peripheral\ble_app_template\pca10040\s132\arm5_no_packs\JLinkSettings.ini"", ...).   returns 0x00 (0081ms, 5262ms total)
T69B0 005:313 JLINK_ExecCommand("Device = nRF52832_xxAA", ...). Device "NRF52832_XXAA" selected.  returns 0x00 (0002ms, 5264ms total)
T69B0 005:315 JLINK_ExecCommand("DisableConnectionTimeout", ...).   returns 0x01 (0000ms, 5264ms total)
T69B0 005:315 JLINK_GetHardwareVersion()  returns 0x16F30 (0000ms, 5264ms total)
T69B0 005:315 JLINK_GetDLLVersion()  returns 61009 (0000ms, 5264ms total)
T69B0 005:315 JLINK_GetFirmwareString(...) (0000ms, 5264ms total)
T69B0 005:335 JLINK_GetDLLVersion()  returns 61009 (0000ms, 5264ms total)
T69B0 005:335 JLINK_GetCompileDateTime() (0000ms, 5264ms total)
T69B0 005:338 JLINK_GetFirmwareString(...) (0000ms, 5264ms total)
T69B0 005:341 JLINK_GetHardwareVersion()  returns 0x16F30 (0000ms, 5264ms total)
T69B0 005:384 JLINK_TIF_Select(JLINKARM_TIF_SWD)  returns 0x00 (0001ms, 5265ms total)
T69B0 005:385 JLINK_SetSpeed(5000) (0000ms, 5265ms total)
T69B0 005:385 JLINK_GetId() >0x108 TIF> >0x108 TIF> >0x108 TIF>Found SWD-DP with ID 0x2BA01477 >0x0D TIF> >0x28 TIF> >0x0D TIF> >0x28 TIF>SWD speed too high. Reduced from 4000 kHz to 2700 kHz for stability >0x0D TIF> >0x28 TIF> >0x0D TIF> >0x28 TIF> >0x35 TIF> >0x0D TIF> >0x28 TIF> >0x0D TIF> >0x28 TIF> >0x35 TIF> >0x35 TIF> >0x35 TIF>AP-IDR: 0x24770011, Type: AHB-AP >0x0D TIF> >0x28 TIF> >0x0D TIF> >0x28 TIF> >0x0D TIF> >0x28 TIF> >0x35 TIF> >0x35 TIF> >0x0D TIF> >0x28 TIF> >0x35 TIF> >0x35 TIF>
Found Cortex-M4 r0p1, Little endian. -- CPU_ReadMem(4 bytes @ 0xE000EDF0) -- CPU_ReadMem(4 bytes @ 0xE0002000)FPUnit: 6 code (BP) slots and 2 literal slots -- CPU_ReadMem(4 bytes @ 0xE000EDFC) -- CPU_WriteMem(4 bytes @ 0xE000EDFC) -- CPU_ReadMem(4 bytes @ 0xE0001000) -- CPU_WriteMem(4 bytes @ 0xE0001000) -- CPU_ReadMem(4 bytes @ 0xE000ED88) -- CPU_WriteMem(4 bytes @ 0xE000ED88) -- CPU_ReadMem(4 bytes @ 0xE000ED88) -- CPU_WriteMem(4 bytes @ 0xE000ED88)CoreSight components:ROMTbl 0 @ E00FF000
 -- CPU_ReadMem(16 bytes @ 0xE00FF000) -- CPU_ReadMem(16 bytes @ 0xE000EFF0) -- CPU_ReadMem(16 bytes @ 0xE000EFE0)ROMTbl 0 [0]: FFF0F000, CID: B105E00D, PID: 000BB00C SCS -- CPU_ReadMem(16 bytes @ 0xE0001FF0) -- CPU_ReadMem(16 bytes @ 0xE0001FE0)ROMTbl 0 [1]: FFF02000, CID: B105E00D, PID: 003BB002 DWT -- CPU_ReadMem(16 bytes @ 0xE0002FF0) -- CPU_ReadMem(16 bytes @ 0xE0002FE0)ROMTbl 0 [2]: FFF03000, CID: B105E00D, PID: 002BB003 FPB -- CPU_ReadMem(16 bytes @ 0xE0000FF0)
 -- CPU_ReadMem(16 bytes @ 0xE0000FE0)ROMTbl 0 [3]: FFF01000, CID: B105E00D, PID: 003BB001 ITM -- CPU_ReadMem(16 bytes @ 0xE00FF010) -- CPU_ReadMem(16 bytes @ 0xE0040FF0) -- CPU_ReadMem(16 bytes @ 0xE0040FE0)ROMTbl 0 [4]: FFF41000, CID: B105900D, PID: 000BB9A1 TPIU -- CPU_ReadMem(16 bytes @ 0xE0041FF0) -- CPU_ReadMem(16 bytes @ 0xE0041FE0)ROMTbl 0 [5]: FFF42000, CID: B105900D, PID: 000BB925 ETM >0x35 TIF>  returns 0x2BA01477 (0148ms, 5413ms total)
T69B0 005:533 JLINK_GetDLLVersion()  returns 61009 (0000ms, 5413ms total)
T69B0 005:533 JLINK_CORE_GetFound()  returns 0xE0000FF (0000ms, 5413ms total)
T69B0 005:533 JLINK_GetDebugInfo(0x100) -- Value=0xE00FF000  returns 0x00 (0000ms, 5413ms total)
T69B0 005:536 JLINK_GetDebugInfo(0x100) -- Value=0xE00FF000  returns 0x00 (0000ms, 5413ms total)
T69B0 005:536 JLINK_GetDebugInfo(0x101) -- Value=0xE0041000  returns 0x00 (0000ms, 5413ms total)
T69B0 005:536 JLINK_GetDebugInfo(0x102) -- Value=0x00000000  returns 0x00 (0000ms, 5413ms total)
T69B0 005:536 JLINK_GetDebugInfo(0x103) -- Value=0xE0040000  returns 0x00 (0000ms, 5413ms total)
T69B0 005:536 JLINK_GetDebugInfo(0x104) -- Value=0xE0000000  returns 0x00 (0000ms, 5413ms total)
T69B0 005:536 JLINK_GetDebugInfo(0x105) -- Value=0xE0001000  returns 0x00 (0000ms, 5413ms total)
T69B0 005:536 JLINK_GetDebugInfo(0x106) -- Value=0xE0002000  returns 0x00 (0000ms, 5413ms total)
T69B0 005:536 JLINK_GetDebugInfo(0x107) -- Value=0xE000E000  returns 0x00 (0000ms, 5413ms total)
T69B0 005:536 JLINK_GetDebugInfo(0x10C) -- Value=0xE000EDF0  returns 0x00 (0000ms, 5413ms total)
T69B0 005:536 JLINK_ReadMemU32(0xE000EF40, 0x0001 Items, ...) -- CPU is running -- CPU_ReadMem(4 bytes @ 0xE000EF40) - Data: 21 00 11 10  returns 0x01 (0000ms, 5413ms total)
T69B0 005:536 JLINK_ReadMemU32(0xE000EF44, 0x0001 Items, ...) -- CPU is running -- CPU_ReadMem(4 bytes @ 0xE000EF44) - Data: 11 00 00 11  returns 0x01 (0001ms, 5414ms total)
T69B0 005:537 JLINK_ReadMemU32(0xE000ED00, 0x0001 Items, ...) -- CPU is running -- CPU_ReadMem(4 bytes @ 0xE000ED00) - Data: 41 C2 0F 41  returns 0x01 (0000ms, 5414ms total)
T69B0 005:537 JLINK_SetResetType(JLINKARM_RESET_TYPE_NORMAL)  returns JLINKARM_RESET_TYPE_NORMAL (0000ms, 5414ms total)
T69B0 005:537 JLINK_Reset() -- CPU is running -- CPU_WriteMem(4 bytes @ 0xE000EDF0) -- CPU is running -- CPU_WriteMem(4 bytes @ 0xE000EDFC) >0x35 TIF> -- CPU is running -- CPU_WriteMem(4 bytes @ 0xE000ED0C) -- CPU is running -- CPU_ReadMem(4 bytes @ 0xE000EDF0) -- CPU is running -- CPU_ReadMem(4 bytes @ 0xE000EDF0) -- CPU is running -- CPU_WriteMem(4 bytes @ 0xE000EDF0) -- CPU is running -- CPU_WriteMem(4 bytes @ 0xE000EDFC) -- CPU is running -- CPU_ReadMem(4 bytes @ 0xE000EDF0)
 -- CPU_WriteMem(4 bytes @ 0xE0002000) -- CPU_ReadMem(4 bytes @ 0xE000EDFC) -- CPU_ReadMem(4 bytes @ 0xE0001000) (0015ms, 5429ms total)
T69B0 005:553 JLINK_Halt()  returns 0x00 (0000ms, 5429ms total)
T69B0 005:553 JLINK_IsHalted()  returns TRUE (0000ms, 5429ms total)
T69B0 005:553 JLINK_ReadMemU32(0xE000EDF0, 0x0001 Items, ...) -- CPU_ReadMem(4 bytes @ 0xE000EDF0) - Data: 03 00 03 00  returns 0x01 (0000ms, 5429ms total)
T69B0 005:553 JLINK_WriteU32(0xE000EDF0, 0xA05F0003) -- CPU_WriteMem(4 bytes @ 0xE000EDF0)  returns 0x00 (0000ms, 5429ms total)
T69B0 005:553 JLINK_WriteU32(0xE000EDFC, 0x01000000) -- CPU_WriteMem(4 bytes @ 0xE000EDFC)  returns 0x00 (0000ms, 5429ms total)
T69B0 005:562 JLINK_GetHWStatus(...)  returns 0x00 (0000ms, 5429ms total)
T69B0 005:571 JLINK_GetNumBPUnits(Type = 0xFFFFFF00)  returns 0x06 (0000ms, 5429ms total)
T69B0 005:571 JLINK_GetNumBPUnits(Type = 0xF0)  returns 0x2000 (0000ms, 5429ms total)
T69B0 005:571 JLINK_GetNumWPUnits()  returns 0x04 (0000ms, 5429ms total)
T69B0 005:577 JLINK_GetSpeed()  returns 0x960 (0000ms, 5429ms total)
T69B0 005:584 JLINK_ReadMemU32(0xE000E004, 0x0001 Items, ...) -- CPU_ReadMem(4 bytes @ 0xE000E004) - Data: 01 00 00 00  returns 0x01 (0000ms, 5429ms total)
T69B0 005:584 JLINK_ReadMemU32(0xE000E004, 0x0001 Items, ...) -- CPU_ReadMem(4 bytes @ 0xE000E004) - Data: 01 00 00 00  returns 0x01 (0000ms, 5429ms total)
T69B0 005:584 JLINK_WriteMem(0xE0001000, 0x001C Bytes, ...) - Data: 01 00 00 00 00 00 00 00 00 00 00 00 00 00 00 00 ... -- CPU_WriteMem(28 bytes @ 0xE0001000)  returns 0x1C (0001ms, 5430ms total)
T69B0 005:585 JLINK_ReadMem (0xE0001000, 0x001C Bytes, ...) -- CPU_ReadMem(28 bytes @ 0xE0001000) - Data: 01 00 00 40 00 00 00 00 00 00 00 00 00 00 00 00 ...  returns 0x00 (0000ms, 5430ms total)
T69B0 005:585 JLINK_Halt()  returns 0x00 (0000ms, 5430ms total)
T69B0 005:585 JLINK_IsHalted()  returns TRUE (0000ms, 5430ms total)
T69B0 005:598 JLINK_WriteMem(0x20000000, 0x0234 Bytes, ...) - Data: 00 BE 0A E0 0D 78 2D 06 68 40 08 24 40 00 00 D3 ... -- CPU_WriteMem(564 bytes @ 0x20000000)  returns 0x234 (0004ms, 5434ms total)
T69B0 005:602 JLINK_WriteReg(R0, 0x00000000)  returns 0x00 (0000ms, 5434ms total)
T69B0 005:602 JLINK_WriteReg(R1, 0x03D09000)  returns 0x00 (0000ms, 5434ms total)
T69B0 005:602 JLINK_WriteReg(R2, 0x00000001)  returns 0x00 (0000ms, 5434ms total)
T69B0 005:602 JLINK_WriteReg(R3, 0x00000000)  returns 0x00 (0000ms, 5434ms total)
T69B0 005:602 JLINK_WriteReg(R4, 0x00000000)  returns 0x00 (0000ms, 5434ms total)
T69B0 005:602 JLINK_WriteReg(R5, 0x00000000)  returns 0x00 (0000ms, 5434ms total)
T69B0 005:602 JLINK_WriteReg(R6, 0x00000000)  returns 0x00 (0000ms, 5434ms total)
T69B0 005:602 JLINK_WriteReg(R7, 0x00000000)  returns 0x00 (0000ms, 5434ms total)
T69B0 005:602 JLINK_WriteReg(R8, 0x00000000)  returns 0x00 (0000ms, 5434ms total)
T69B0 005:602 JLINK_WriteReg(R9, 0x20000230)  returns 0x00 (0000ms, 5434ms total)
T69B0 005:602 JLINK_WriteReg(R10, 0x00000000)  returns 0x00 (0000ms, 5434ms total)
T69B0 005:602 JLINK_WriteReg(R11, 0x00000000)  returns 0x00 (0000ms, 5434ms total)
T69B0 005:602 JLINK_WriteReg(R12, 0x00000000)  returns 0x00 (0000ms, 5434ms total)
T69B0 005:602 JLINK_WriteReg(R13 (SP), 0x20002000)  returns 0x00 (0000ms, 5434ms total)
T69B0 005:602 JLINK_WriteReg(R14, 0x20000001)  returns 0x00 (0000ms, 5434ms total)
T69B0 005:602 JLINK_WriteReg(R15 (PC), 0x2000003C)  returns 0x00 (0000ms, 5434ms total)
T69B0 005:602 JLINK_WriteReg(XPSR, 0x01000000)  returns 0x00 (0000ms, 5434ms total)
T69B0 005:602 JLINK_WriteReg(MSP, 0x20002000)  returns 0x00 (0000ms, 5434ms total)
T69B0 005:602 JLINK_WriteReg(PSP, 0x20002000)  returns 0x00 (0000ms, 5434ms total)
T69B0 005:602 JLINK_WriteReg(CFBP, 0x00000000)  returns 0x00 (0000ms, 5434ms total)
T69B0 005:602 JLINK_SetBPEx(Addr = 0x20000000, Type = 0xFFFFFFF2) -- CPU_ReadMem(2 bytes @ 0x20000000)  returns 0x00000001 (0000ms, 5434ms total)
T69B0 005:602 JLINK_Go() -- CPU_WriteMem(2 bytes @ 0x20000000) -- CPU_ReadMem(4 bytes @ 0xE0001000) -- CPU_WriteMem(4 bytes @ 0xE0002008) -- CPU_WriteMem(4 bytes @ 0xE000200C) -- CPU_WriteMem(4 bytes @ 0xE0002010) -- CPU_WriteMem(4 bytes @ 0xE0002014) -- CPU_WriteMem(4 bytes @ 0xE0002018) -- CPU_WriteMem(4 bytes @ 0xE000201C) -- CPU_WriteMem(4 bytes @ 0xE0001004) (0004ms, 5438ms total)
T69B0 005:606 JLINK_IsHalted() -- CPU_ReadMem(2 bytes @ 0x20000000)  returns TRUE (0002ms, 5440ms total)
T69B0 005:608 JLINK_ReadReg(R15 (PC))  returns 0x20000000 (0000ms, 5438ms total)
T69B0 005:608 JLINK_ClrBPEx(BPHandle = 0x00000001)  returns 0x00 (0000ms, 5438ms total)
T69B0 005:608 JLINK_ReadReg(R0)  returns 0x00000000 (0000ms, 5438ms total)
T69B0 005:609 JLINK_WriteReg(R0, 0x00026000)  returns 0x00 (0000ms, 5438ms total)
T69B0 005:609 JLINK_WriteReg(R1, 0x00001000)  returns 0x00 (0000ms, 5438ms total)
T69B0 005:609 JLINK_WriteReg(R2, 0x000000FF)  returns 0x00 (0000ms, 5438ms total)
T69B0 005:609 JLINK_WriteReg(R3, 0x00000000)  returns 0x00 (0000ms, 5438ms total)
T69B0 005:609 JLINK_WriteReg(R4, 0x00000000)  returns 0x00 (0000ms, 5438ms total)
T69B0 005:609 JLINK_WriteReg(R5, 0x00000000)  returns 0x00 (0000ms, 5438ms total)
T69B0 005:609 JLINK_WriteReg(R6, 0x00000000)  returns 0x00 (0000ms, 5438ms total)
T69B0 005:609 JLINK_WriteReg(R7, 0x00000000)  returns 0x00 (0000ms, 5438ms total)
T69B0 005:609 JLINK_WriteReg(R8, 0x00000000)  returns 0x00 (0000ms, 5438ms total)
T69B0 005:609 JLINK_WriteReg(R9, 0x20000230)  returns 0x00 (0000ms, 5438ms total)
T69B0 005:609 JLINK_WriteReg(R10, 0x00000000)  returns 0x00 (0000ms, 5438ms total)
T69B0 005:609 JLINK_WriteReg(R11, 0x00000000)  returns 0x00 (0000ms, 5438ms total)
T69B0 005:609 JLINK_WriteReg(R12, 0x00000000)  returns 0x00 (0000ms, 5438ms total)
T69B0 005:609 JLINK_WriteReg(R13 (SP), 0x20002000)  returns 0x00 (0000ms, 5438ms total)
T69B0 005:609 JLINK_WriteReg(R14, 0x20000001)  returns 0x00 (0000ms, 5438ms total)
T69B0 005:609 JLINK_WriteReg(R15 (PC), 0x2000011A)  returns 0x00 (0000ms, 5438ms total)
T69B0 005:609 JLINK_WriteReg(XPSR, 0x01000000)  returns 0x00 (0000ms, 5438ms total)
T69B0 005:609 JLINK_WriteReg(MSP, 0x20002000)  returns 0x00 (0000ms, 5438ms total)
T69B0 005:609 JLINK_WriteReg(PSP, 0x20002000)  returns 0x00 (0000ms, 5438ms total)
T69B0 005:609 JLINK_WriteReg(CFBP, 0x00000000)  returns 0x00 (0000ms, 5438ms total)
T69B0 005:609 JLINK_SetBPEx(Addr = 0x20000000, Type = 0xFFFFFFF2)  returns 0x00000002 (0000ms, 5438ms total)
T69B0 005:609 JLINK_Go() -- CPU_ReadMem(4 bytes @ 0xE0001000) (0002ms, 5440ms total)
T69B0 005:611 JLINK_IsHalted()  returns FALSE (0000ms, 5440ms total)
T69B0 005:676 JLINK_IsHalted() -- CPU_ReadMem(2 bytes @ 0x20000000)  returns TRUE (0002ms, 5442ms total)
T69B0 005:678 JLINK_ReadReg(R15 (PC))  returns 0x20000000 (0000ms, 5440ms total)
T69B0 005:678 JLINK_ClrBPEx(BPHandle = 0x00000002)  returns 0x00 (0000ms, 5440ms total)
T69B0 005:678 JLINK_ReadReg(R0)  returns 0x00000000 (0000ms, 5440ms total)
T69B0 005:679 JLINK_WriteReg(R0, 0x00027000)  returns 0x00 (0000ms, 5440ms total)
T69B0 005:679 JLINK_WriteReg(R1, 0x00001000)  returns 0x00 (0000ms, 5440ms total)
T69B0 005:679 JLINK_WriteReg(R2, 0x000000FF)  returns 0x00 (0000ms, 5440ms total)
T69B0 005:679 JLINK_WriteReg(R3, 0x00000000)  returns 0x00 (0000ms, 5440ms total)
T69B0 005:679 JLINK_WriteReg(R4, 0x00000000)  returns 0x00 (0000ms, 5440ms total)
T69B0 005:679 JLINK_WriteReg(R5, 0x00000000)  returns 0x00 (0000ms, 5440ms total)
T69B0 005:679 JLINK_WriteReg(R6, 0x00000000)  returns 0x00 (0000ms, 5440ms total)
T69B0 005:679 JLINK_WriteReg(R7, 0x00000000)  returns 0x00 (0000ms, 5440ms total)
T69B0 005:679 JLINK_WriteReg(R8, 0x00000000)  returns 0x00 (0000ms, 5440ms total)
T69B0 005:679 JLINK_WriteReg(R9, 0x20000230)  returns 0x00 (0000ms, 5440ms total)
T69B0 005:679 JLINK_WriteReg(R10, 0x00000000)  returns 0x00 (0000ms, 5440ms total)
T69B0 005:679 JLINK_WriteReg(R11, 0x00000000)  returns 0x00 (0000ms, 5440ms total)
T69B0 005:679 JLINK_WriteReg(R12, 0x00000000)  returns 0x00 (0000ms, 5440ms total)
T69B0 005:679 JLINK_WriteReg(R13 (SP), 0x20002000)  returns 0x00 (0000ms, 5440ms total)
T69B0 005:679 JLINK_WriteReg(R14, 0x20000001)  returns 0x00 (0000ms, 5440ms total)
T69B0 005:679 JLINK_WriteReg(R15 (PC), 0x2000011A)  returns 0x00 (0000ms, 5440ms total)
T69B0 005:679 JLINK_WriteReg(XPSR, 0x01000000)  returns 0x00 (0000ms, 5440ms total)
T69B0 005:679 JLINK_WriteReg(MSP, 0x20002000)  returns 0x00 (0000ms, 5440ms total)
T69B0 005:679 JLINK_WriteReg(PSP, 0x20002000)  returns 0x00 (0000ms, 5440ms total)
T69B0 005:679 JLINK_WriteReg(CFBP, 0x00000000)  returns 0x00 (0000ms, 5440ms total)
T69B0 005:679 JLINK_SetBPEx(Addr = 0x20000000, Type = 0xFFFFFFF2)  returns 0x00000003 (0000ms, 5440ms total)
T69B0 005:679 JLINK_Go() -- CPU_ReadMem(4 bytes @ 0xE0001000) (0002ms, 5442ms total)
T69B0 005:681 JLINK_IsHalted()  returns FALSE (0000ms, 5442ms total)
T69B0 005:687 JLINK_IsHalted() -- CPU_ReadMem(2 bytes @ 0x20000000)  returns TRUE (0002ms, 5444ms total)
T69B0 005:689 JLINK_ReadReg(R15 (PC))  returns 0x20000000 (0001ms, 5443ms total)
T69B0 005:690 JLINK_ClrBPEx(BPHandle = 0x00000003)  returns 0x00 (0000ms, 5443ms total)
T69B0 005:690 JLINK_ReadReg(R0)  returns 0x00000000 (0000ms, 5443ms total)
T69B0 005:690 JLINK_WriteReg(R0, 0x00028000)  returns 0x00 (0000ms, 5443ms total)
T69B0 005:690 JLINK_WriteReg(R1, 0x00001000)  returns 0x00 (0000ms, 5443ms total)
T69B0 005:690 JLINK_WriteReg(R2, 0x000000FF)  returns 0x00 (0000ms, 5443ms total)
T69B0 005:690 JLINK_WriteReg(R3, 0x00000000)  returns 0x00 (0000ms, 5443ms total)
T69B0 005:690 JLINK_WriteReg(R4, 0x00000000)  returns 0x00 (0000ms, 5443ms total)
T69B0 005:690 JLINK_WriteReg(R5, 0x00000000)  returns 0x00 (0000ms, 5443ms total)
T69B0 005:690 JLINK_WriteReg(R6, 0x00000000)  returns 0x00 (0000ms, 5443ms total)
T69B0 005:690 JLINK_WriteReg(R7, 0x00000000)  returns 0x00 (0000ms, 5443ms total)
T69B0 005:690 JLINK_WriteReg(R8, 0x00000000)  returns 0x00 (0000ms, 5443ms total)
T69B0 005:690 JLINK_WriteReg(R9, 0x20000230)  returns 0x00 (0000ms, 5443ms total)
T69B0 005:690 JLINK_WriteReg(R10, 0x00000000)  returns 0x00 (0000ms, 5443ms total)
T69B0 005:690 JLINK_WriteReg(R11, 0x00000000)  returns 0x00 (0000ms, 5443ms total)
T69B0 005:690 JLINK_WriteReg(R12, 0x00000000)  returns 0x00 (0000ms, 5443ms total)
T69B0 005:690 JLINK_WriteReg(R13 (SP), 0x20002000)  returns 0x00 (0000ms, 5443ms total)
T69B0 005:690 JLINK_WriteReg(R14, 0x20000001)  returns 0x00 (0000ms, 5443ms total)
T69B0 005:690 JLINK_WriteReg(R15 (PC), 0x2000011A)  returns 0x00 (0000ms, 5443ms total)
T69B0 005:690 JLINK_WriteReg(XPSR, 0x01000000)  returns 0x00 (0000ms, 5443ms total)
T69B0 005:690 JLINK_WriteReg(MSP, 0x20002000)  returns 0x00 (0000ms, 5443ms total)
T69B0 005:690 JLINK_WriteReg(PSP, 0x20002000)  returns 0x00 (0000ms, 5443ms total)
T69B0 005:690 JLINK_WriteReg(CFBP, 0x00000000)  returns 0x00 (0000ms, 5443ms total)
T69B0 005:690 JLINK_SetBPEx(Addr = 0x20000000, Type = 0xFFFFFFF2)  returns 0x00000004 (0000ms, 5443ms total)
T69B0 005:690 JLINK_Go() -- CPU_ReadMem(4 bytes @ 0xE0001000) (0002ms, 5445ms total)
T69B0 005:692 JLINK_IsHalted()  returns FALSE (0000ms, 5445ms total)
T69B0 005:698 JLINK_IsHalted() -- CPU_ReadMem(2 bytes @ 0x20000000)  returns TRUE (0003ms, 5448ms total)
T69B0 005:701 JLINK_ReadReg(R15 (PC))  returns 0x20000000 (0000ms, 5445ms total)
T69B0 005:701 JLINK_ClrBPEx(BPHandle = 0x00000004)  returns 0x00 (0000ms, 5445ms total)
T69B0 005:701 JLINK_ReadReg(R0)  returns 0x00000000 (0000ms, 5445ms total)
T69B0 005:701 JLINK_WriteReg(R0, 0x00029000)  returns 0x00 (0000ms, 5445ms total)
T69B0 005:701 JLINK_WriteReg(R1, 0x00001000)  returns 0x00 (0000ms, 5445ms total)
T69B0 005:701 JLINK_WriteReg(R2, 0x000000FF)  returns 0x00 (0000ms, 5445ms total)
T69B0 005:701 JLINK_WriteReg(R3, 0x00000000)  returns 0x00 (0000ms, 5445ms total)
T69B0 005:701 JLINK_WriteReg(R4, 0x00000000)  returns 0x00 (0000ms, 5445ms total)
T69B0 005:701 JLINK_WriteReg(R5, 0x00000000)  returns 0x00 (0000ms, 5445ms total)
T69B0 005:701 JLINK_WriteReg(R6, 0x00000000)  returns 0x00 (0000ms, 5445ms total)
T69B0 005:701 JLINK_WriteReg(R7, 0x00000000)  returns 0x00 (0000ms, 5445ms total)
T69B0 005:701 JLINK_WriteReg(R8, 0x00000000)  returns 0x00 (0000ms, 5445ms total)
T69B0 005:701 JLINK_WriteReg(R9, 0x20000230)  returns 0x00 (0000ms, 5445ms total)
T69B0 005:701 JLINK_WriteReg(R10, 0x00000000)  returns 0x00 (0000ms, 5445ms total)
T69B0 005:701 JLINK_WriteReg(R11, 0x00000000)  returns 0x00 (0000ms, 5445ms total)
T69B0 005:701 JLINK_WriteReg(R12, 0x00000000)  returns 0x00 (0000ms, 5445ms total)
T69B0 005:701 JLINK_WriteReg(R13 (SP), 0x20002000)  returns 0x00 (0000ms, 5445ms total)
T69B0 005:701 JLINK_WriteReg(R14, 0x20000001)  returns 0x00 (0000ms, 5445ms total)
T69B0 005:701 JLINK_WriteReg(R15 (PC), 0x2000011A)  returns 0x00 (0000ms, 5445ms total)
T69B0 005:701 JLINK_WriteReg(XPSR, 0x01000000)  returns 0x00 (0000ms, 5445ms total)
T69B0 005:701 JLINK_WriteReg(MSP, 0x20002000)  returns 0x00 (0000ms, 5445ms total)
T69B0 005:701 JLINK_WriteReg(PSP, 0x20002000)  returns 0x00 (0000ms, 5445ms total)
T69B0 005:701 JLINK_WriteReg(CFBP, 0x00000000)  returns 0x00 (0000ms, 5445ms total)
T69B0 005:701 JLINK_SetBPEx(Addr = 0x20000000, Type = 0xFFFFFFF2)  returns 0x00000005 (0000ms, 5445ms total)
T69B0 005:701 JLINK_Go() -- CPU_ReadMem(4 bytes @ 0xE0001000) (0002ms, 5447ms total)
T69B0 005:703 JLINK_IsHalted()  returns FALSE (0000ms, 5447ms total)
T69B0 005:705 JLINK_IsHalted() -- CPU_ReadMem(2 bytes @ 0x20000000)  returns TRUE (0002ms, 5449ms total)
T69B0 005:707 JLINK_ReadReg(R15 (PC))  returns 0x20000000 (0000ms, 5447ms total)
T69B0 005:707 JLINK_ClrBPEx(BPHandle = 0x00000005)  returns 0x00 (0000ms, 5447ms total)
T69B0 005:707 JLINK_ReadReg(R0)  returns 0x00000000 (0000ms, 5447ms total)
T69B0 005:708 JLINK_WriteReg(R0, 0x0002A000)  returns 0x00 (0000ms, 5448ms total)
T69B0 005:708 JLINK_WriteReg(R1, 0x00001000)  returns 0x00 (0000ms, 5448ms total)
T69B0 005:708 JLINK_WriteReg(R2, 0x000000FF)  returns 0x00 (0000ms, 5448ms total)
T69B0 005:708 JLINK_WriteReg(R3, 0x00000000)  returns 0x00 (0000ms, 5448ms total)
T69B0 005:708 JLINK_WriteReg(R4, 0x00000000)  returns 0x00 (0000ms, 5448ms total)
T69B0 005:708 JLINK_WriteReg(R5, 0x00000000)  returns 0x00 (0000ms, 5448ms total)
T69B0 005:708 JLINK_WriteReg(R6, 0x00000000)  returns 0x00 (0000ms, 5448ms total)
T69B0 005:708 JLINK_WriteReg(R7, 0x00000000)  returns 0x00 (0000ms, 5448ms total)
T69B0 005:708 JLINK_WriteReg(R8, 0x00000000)  returns 0x00 (0000ms, 5448ms total)
T69B0 005:708 JLINK_WriteReg(R9, 0x20000230)  returns 0x00 (0000ms, 5448ms total)
T69B0 005:708 JLINK_WriteReg(R10, 0x00000000)  returns 0x00 (0000ms, 5448ms total)
T69B0 005:708 JLINK_WriteReg(R11, 0x00000000)  returns 0x00 (0000ms, 5448ms total)
T69B0 005:708 JLINK_WriteReg(R12, 0x00000000)  returns 0x00 (0000ms, 5448ms total)
T69B0 005:708 JLINK_WriteReg(R13 (SP), 0x20002000)  returns 0x00 (0000ms, 5448ms total)
T69B0 005:708 JLINK_WriteReg(R14, 0x20000001)  returns 0x00 (0000ms, 5448ms total)
T69B0 005:708 JLINK_WriteReg(R15 (PC), 0x2000011A)  returns 0x00 (0000ms, 5448ms total)
T69B0 005:708 JLINK_WriteReg(XPSR, 0x01000000)  returns 0x00 (0000ms, 5448ms total)
T69B0 005:708 JLINK_WriteReg(MSP, 0x20002000)  returns 0x00 (0000ms, 5448ms total)
T69B0 005:708 JLINK_WriteReg(PSP, 0x20002000)  returns 0x00 (0000ms, 5448ms total)
T69B0 005:708 JLINK_WriteReg(CFBP, 0x00000000)  returns 0x00 (0000ms, 5448ms total)
T69B0 005:708 JLINK_SetBPEx(Addr = 0x20000000, Type = 0xFFFFFFF2)  returns 0x00000006 (0000ms, 5448ms total)
T69B0 005:708 JLINK_Go() -- CPU_ReadMem(4 bytes @ 0xE0001000) (0002ms, 5450ms total)
T69B0 005:710 JLINK_IsHalted()  returns FALSE (0000ms, 5450ms total)
T69B0 005:716 JLINK_IsHalted() -- CPU_ReadMem(2 bytes @ 0x20000000)  returns TRUE (0003ms, 5453ms total)
T69B0 005:719 JLINK_ReadReg(R15 (PC))  returns 0x20000000 (0000ms, 5450ms total)
T69B0 005:719 JLINK_ClrBPEx(BPHandle = 0x00000006)  returns 0x00 (0000ms, 5450ms total)
T69B0 005:719 JLINK_ReadReg(R0)  returns 0x00000000 (0000ms, 5450ms total)
T69B0 005:719 JLINK_WriteReg(R0, 0x0002B000)  returns 0x00 (0000ms, 5450ms total)
T69B0 005:719 JLINK_WriteReg(R1, 0x00001000)  returns 0x00 (0000ms, 5450ms total)
T69B0 005:719 JLINK_WriteReg(R2, 0x000000FF)  returns 0x00 (0000ms, 5450ms total)
T69B0 005:719 JLINK_WriteReg(R3, 0x00000000)  returns 0x00 (0000ms, 5450ms total)
T69B0 005:719 JLINK_WriteReg(R4, 0x00000000)  returns 0x00 (0000ms, 5450ms total)
T69B0 005:719 JLINK_WriteReg(R5, 0x00000000)  returns 0x00 (0000ms, 5450ms total)
T69B0 005:719 JLINK_WriteReg(R6, 0x00000000)  returns 0x00 (0000ms, 5450ms total)
T69B0 005:719 JLINK_WriteReg(R7, 0x00000000)  returns 0x00 (0000ms, 5450ms total)
T69B0 005:719 JLINK_WriteReg(R8, 0x00000000)  returns 0x00 (0000ms, 5450ms total)
T69B0 005:719 JLINK_WriteReg(R9, 0x20000230)  returns 0x00 (0000ms, 5450ms total)
T69B0 005:719 JLINK_WriteReg(R10, 0x00000000)  returns 0x00 (0000ms, 5450ms total)
T69B0 005:719 JLINK_WriteReg(R11, 0x00000000)  returns 0x00 (0000ms, 5450ms total)
T69B0 005:719 JLINK_WriteReg(R12, 0x00000000)  returns 0x00 (0000ms, 5450ms total)
T69B0 005:719 JLINK_WriteReg(R13 (SP), 0x20002000)  returns 0x00 (0000ms, 5450ms total)
T69B0 005:719 JLINK_WriteReg(R14, 0x20000001)  returns 0x00 (0000ms, 5450ms total)
T69B0 005:719 JLINK_WriteReg(R15 (PC), 0x2000011A)  returns 0x00 (0000ms, 5450ms total)
T69B0 005:719 JLINK_WriteReg(XPSR, 0x01000000)  returns 0x00 (0000ms, 5450ms total)
T69B0 005:719 JLINK_WriteReg(MSP, 0x20002000)  returns 0x00 (0000ms, 5450ms total)
T69B0 005:719 JLINK_WriteReg(PSP, 0x20002000)  returns 0x00 (0000ms, 5450ms total)
T69B0 005:719 JLINK_WriteReg(CFBP, 0x00000000)  returns 0x00 (0000ms, 5450ms total)
T69B0 005:719 JLINK_SetBPEx(Addr = 0x20000000, Type = 0xFFFFFFF2)  returns 0x00000007 (0000ms, 5450ms total)
T69B0 005:719 JLINK_Go() -- CPU_ReadMem(4 bytes @ 0xE0001000) (0002ms, 5452ms total)
T69B0 005:721 JLINK_IsHalted()  returns FALSE (0000ms, 5452ms total)
T69B0 005:723 JLINK_IsHalted() -- CPU_ReadMem(2 bytes @ 0x20000000)  returns TRUE (0003ms, 5455ms total)
T69B0 005:726 JLINK_ReadReg(R15 (PC))  returns 0x20000000 (0000ms, 5452ms total)
T69B0 005:726 JLINK_ClrBPEx(BPHandle = 0x00000007)  returns 0x00 (0000ms, 5452ms total)
T69B0 005:726 JLINK_ReadReg(R0)  returns 0x00000000 (0000ms, 5452ms total)
T69B0 005:726 JLINK_WriteReg(R0, 0x0002C000)  returns 0x00 (0000ms, 5452ms total)
T69B0 005:726 JLINK_WriteReg(R1, 0x00001000)  returns 0x00 (0000ms, 5452ms total)
T69B0 005:726 JLINK_WriteReg(R2, 0x000000FF)  returns 0x00 (0000ms, 5452ms total)
T69B0 005:726 JLINK_WriteReg(R3, 0x00000000)  returns 0x00 (0000ms, 5452ms total)
T69B0 005:726 JLINK_WriteReg(R4, 0x00000000)  returns 0x00 (0000ms, 5452ms total)
T69B0 005:726 JLINK_WriteReg(R5, 0x00000000)  returns 0x00 (0000ms, 5452ms total)
T69B0 005:726 JLINK_WriteReg(R6, 0x00000000)  returns 0x00 (0000ms, 5452ms total)
T69B0 005:726 JLINK_WriteReg(R7, 0x00000000)  returns 0x00 (0000ms, 5452ms total)
T69B0 005:726 JLINK_WriteReg(R8, 0x00000000)  returns 0x00 (0000ms, 5452ms total)
T69B0 005:726 JLINK_WriteReg(R9, 0x20000230)  returns 0x00 (0000ms, 5452ms total)
T69B0 005:726 JLINK_WriteReg(R10, 0x00000000)  returns 0x00 (0000ms, 5452ms total)
T69B0 005:726 JLINK_WriteReg(R11, 0x00000000)  returns 0x00 (0000ms, 5452ms total)
T69B0 005:726 JLINK_WriteReg(R12, 0x00000000)  returns 0x00 (0000ms, 5452ms total)
T69B0 005:726 JLINK_WriteReg(R13 (SP), 0x20002000)  returns 0x00 (0000ms, 5452ms total)
T69B0 005:726 JLINK_WriteReg(R14, 0x20000001)  returns 0x00 (0000ms, 5452ms total)
T69B0 005:726 JLINK_WriteReg(R15 (PC), 0x2000011A)  returns 0x00 (0000ms, 5452ms total)
T69B0 005:726 JLINK_WriteReg(XPSR, 0x01000000)  returns 0x00 (0000ms, 5452ms total)
T69B0 005:726 JLINK_WriteReg(MSP, 0x20002000)  returns 0x00 (0000ms, 5452ms total)
T69B0 005:726 JLINK_WriteReg(PSP, 0x20002000)  returns 0x00 (0000ms, 5452ms total)
T69B0 005:726 JLINK_WriteReg(CFBP, 0x00000000)  returns 0x00 (0000ms, 5452ms total)
T69B0 005:726 JLINK_SetBPEx(Addr = 0x20000000, Type = 0xFFFFFFF2)  returns 0x00000008 (0000ms, 5452ms total)
T69B0 005:726 JLINK_Go() -- CPU_ReadMem(4 bytes @ 0xE0001000) (0002ms, 5454ms total)
T69B0 005:728 JLINK_IsHalted()  returns FALSE (0000ms, 5454ms total)
T69B0 005:732 JLINK_IsHalted() -- CPU_ReadMem(2 bytes @ 0x20000000)  returns TRUE (0002ms, 5456ms total)
T69B0 005:734 JLINK_ReadReg(R15 (PC))  returns 0x20000000 (0001ms, 5455ms total)
T69B0 005:735 JLINK_ClrBPEx(BPHandle = 0x00000008)  returns 0x00 (0000ms, 5455ms total)
T69B0 005:735 JLINK_ReadReg(R0)  returns 0x00000000 (0000ms, 5455ms total)
T69B0 005:735 JLINK_WriteReg(R0, 0x0002D000)  returns 0x00 (0000ms, 5455ms total)
T69B0 005:735 JLINK_WriteReg(R1, 0x00001000)  returns 0x00 (0000ms, 5455ms total)
T69B0 005:735 JLINK_WriteReg(R2, 0x000000FF)  returns 0x00 (0000ms, 5455ms total)
T69B0 005:735 JLINK_WriteReg(R3, 0x00000000)  returns 0x00 (0000ms, 5455ms total)
T69B0 005:735 JLINK_WriteReg(R4, 0x00000000)  returns 0x00 (0000ms, 5455ms total)
T69B0 005:735 JLINK_WriteReg(R5, 0x00000000)  returns 0x00 (0000ms, 5455ms total)
T69B0 005:735 JLINK_WriteReg(R6, 0x00000000)  returns 0x00 (0000ms, 5455ms total)
T69B0 005:735 JLINK_WriteReg(R7, 0x00000000)  returns 0x00 (0000ms, 5455ms total)
T69B0 005:735 JLINK_WriteReg(R8, 0x00000000)  returns 0x00 (0000ms, 5455ms total)
T69B0 005:735 JLINK_WriteReg(R9, 0x20000230)  returns 0x00 (0000ms, 5455ms total)
T69B0 005:735 JLINK_WriteReg(R10, 0x00000000)  returns 0x00 (0000ms, 5455ms total)
T69B0 005:735 JLINK_WriteReg(R11, 0x00000000)  returns 0x00 (0000ms, 5455ms total)
T69B0 005:735 JLINK_WriteReg(R12, 0x00000000)  returns 0x00 (0000ms, 5455ms total)
T69B0 005:735 JLINK_WriteReg(R13 (SP), 0x20002000)  returns 0x00 (0000ms, 5455ms total)
T69B0 005:735 JLINK_WriteReg(R14, 0x20000001)  returns 0x00 (0000ms, 5455ms total)
T69B0 005:735 JLINK_WriteReg(R15 (PC), 0x2000011A)  returns 0x00 (0000ms, 5455ms total)
T69B0 005:735 JLINK_WriteReg(XPSR, 0x01000000)  returns 0x00 (0000ms, 5455ms total)
T69B0 005:735 JLINK_WriteReg(MSP, 0x20002000)  returns 0x00 (0000ms, 5455ms total)
T69B0 005:735 JLINK_WriteReg(PSP, 0x20002000)  returns 0x00 (0000ms, 5455ms total)
T69B0 005:735 JLINK_WriteReg(CFBP, 0x00000000)  returns 0x00 (0000ms, 5455ms total)
T69B0 005:735 JLINK_SetBPEx(Addr = 0x20000000, Type = 0xFFFFFFF2)  returns 0x00000009 (0000ms, 5455ms total)
T69B0 005:735 JLINK_Go() -- CPU_ReadMem(4 bytes @ 0xE0001000) (0001ms, 5456ms total)
T69B0 005:736 JLINK_IsHalted()  returns FALSE (0001ms, 5457ms total)
T69B0 005:744 JLINK_IsHalted() -- CPU_ReadMem(2 bytes @ 0x20000000)  returns TRUE (0003ms, 5459ms total)
T69B0 005:747 JLINK_ReadReg(R15 (PC))  returns 0x20000000 (0000ms, 5456ms total)
T69B0 005:747 JLINK_ClrBPEx(BPHandle = 0x00000009)  returns 0x00 (0000ms, 5456ms total)
T69B0 005:747 JLINK_ReadReg(R0)  returns 0x00000000 (0000ms, 5456ms total)
T69B0 005:747 JLINK_WriteReg(R0, 0x00000001)  returns 0x00 (0000ms, 5456ms total)
T69B0 005:747 JLINK_WriteReg(R1, 0x00001000)  returns 0x00 (0000ms, 5456ms total)
T69B0 005:747 JLINK_WriteReg(R2, 0x000000FF)  returns 0x00 (0000ms, 5456ms total)
T69B0 005:747 JLINK_WriteReg(R3, 0x00000000)  returns 0x00 (0000ms, 5456ms total)
T69B0 005:747 JLINK_WriteReg(R4, 0x00000000)  returns 0x00 (0000ms, 5456ms total)
T69B0 005:747 JLINK_WriteReg(R5, 0x00000000)  returns 0x00 (0000ms, 5456ms total)
T69B0 005:747 JLINK_WriteReg(R6, 0x00000000)  returns 0x00 (0000ms, 5456ms total)
T69B0 005:747 JLINK_WriteReg(R7, 0x00000000)  returns 0x00 (0000ms, 5456ms total)
T69B0 005:747 JLINK_WriteReg(R8, 0x00000000)  returns 0x00 (0000ms, 5456ms total)
T69B0 005:747 JLINK_WriteReg(R9, 0x20000230)  returns 0x00 (0000ms, 5456ms total)
T69B0 005:747 JLINK_WriteReg(R10, 0x00000000)  returns 0x00 (0000ms, 5456ms total)
T69B0 005:747 JLINK_WriteReg(R11, 0x00000000)  returns 0x00 (0000ms, 5456ms total)
T69B0 005:747 JLINK_WriteReg(R12, 0x00000000)  returns 0x00 (0000ms, 5456ms total)
T69B0 005:747 JLINK_WriteReg(R13 (SP), 0x20002000)  returns 0x00 (0000ms, 5456ms total)
T69B0 005:747 JLINK_WriteReg(R14, 0x20000001)  returns 0x00 (0000ms, 5456ms total)
T69B0 005:747 JLINK_WriteReg(R15 (PC), 0x2000008E)  returns 0x00 (0000ms, 5456ms total)
T69B0 005:747 JLINK_WriteReg(XPSR, 0x01000000)  returns 0x00 (0000ms, 5456ms total)
T69B0 005:747 JLINK_WriteReg(MSP, 0x20002000)  returns 0x00 (0000ms, 5456ms total)
T69B0 005:747 JLINK_WriteReg(PSP, 0x20002000)  returns 0x00 (0000ms, 5456ms total)
T69B0 005:747 JLINK_WriteReg(CFBP, 0x00000000)  returns 0x00 (0000ms, 5456ms total)
T69B0 005:747 JLINK_SetBPEx(Addr = 0x20000000, Type = 0xFFFFFFF2)  returns 0x0000000A (0000ms, 5456ms total)
T69B0 005:747 JLINK_Go() -- CPU_ReadMem(4 bytes @ 0xE0001000) (0002ms, 5458ms total)
T69B0 005:749 JLINK_IsHalted() -- CPU_ReadMem(2 bytes @ 0x20000000)  returns TRUE (0003ms, 5461ms total)
T69B0 005:752 JLINK_ReadReg(R15 (PC))  returns 0x20000000 (0000ms, 5458ms total)
T69B0 005:752 JLINK_ClrBPEx(BPHandle = 0x0000000A)  returns 0x00 (0000ms, 5458ms total)
T69B0 005:752 JLINK_ReadReg(R0)  returns 0x00000000 (0000ms, 5458ms total)
T69B0 005:809 JLINK_WriteMem(0x20000000, 0x0234 Bytes, ...) - Data: 00 BE 0A E0 0D 78 2D 06 68 40 08 24 40 00 00 D3 ... -- CPU_WriteMem(564 bytes @ 0x20000000)  returns 0x234 (0004ms, 5462ms total)
T69B0 005:813 JLINK_WriteReg(R0, 0x00000000)  returns 0x00 (0000ms, 5462ms total)
T69B0 005:813 JLINK_WriteReg(R1, 0x03D09000)  returns 0x00 (0000ms, 5462ms total)
T69B0 005:813 JLINK_WriteReg(R2, 0x00000002)  returns 0x00 (0000ms, 5462ms total)
T69B0 005:813 JLINK_WriteReg(R3, 0x00000000)  returns 0x00 (0000ms, 5462ms total)
T69B0 005:813 JLINK_WriteReg(R4, 0x00000000)  returns 0x00 (0000ms, 5462ms total)
T69B0 005:813 JLINK_WriteReg(R5, 0x00000000)  returns 0x00 (0000ms, 5462ms total)
T69B0 005:813 JLINK_WriteReg(R6, 0x00000000)  returns 0x00 (0000ms, 5462ms total)
T69B0 005:813 JLINK_WriteReg(R7, 0x00000000)  returns 0x00 (0000ms, 5462ms total)
T69B0 005:813 JLINK_WriteReg(R8, 0x00000000)  returns 0x00 (0000ms, 5462ms total)
T69B0 005:813 JLINK_WriteReg(R9, 0x20000230)  returns 0x00 (0000ms, 5462ms total)
T69B0 005:813 JLINK_WriteReg(R10, 0x00000000)  returns 0x00 (0000ms, 5462ms total)
T69B0 005:813 JLINK_WriteReg(R11, 0x00000000)  returns 0x00 (0000ms, 5462ms total)
T69B0 005:813 JLINK_WriteReg(R12, 0x00000000)  returns 0x00 (0000ms, 5462ms total)
T69B0 005:813 JLINK_WriteReg(R13 (SP), 0x20002000)  returns 0x00 (0000ms, 5462ms total)
T69B0 005:813 JLINK_WriteReg(R14, 0x20000001)  returns 0x00 (0000ms, 5462ms total)
T69B0 005:813 JLINK_WriteReg(R15 (PC), 0x2000003C)  returns 0x00 (0000ms, 5462ms total)
T69B0 005:813 JLINK_WriteReg(XPSR, 0x01000000)  returns 0x00 (0000ms, 5462ms total)
T69B0 005:813 JLINK_WriteReg(MSP, 0x20002000)  returns 0x00 (0000ms, 5462ms total)
T69B0 005:813 JLINK_WriteReg(PSP, 0x20002000)  returns 0x00 (0000ms, 5462ms total)
T69B0 005:813 JLINK_WriteReg(CFBP, 0x00000000)  returns 0x00 (0000ms, 5462ms total)
T69B0 005:813 JLINK_SetBPEx(Addr = 0x20000000, Type = 0xFFFFFFF2) -- CPU_ReadMem(2 bytes @ 0x20000000)  returns 0x0000000B (0001ms, 5463ms total)
T69B0 005:814 JLINK_Go() -- CPU_WriteMem(2 bytes @ 0x20000000) -- CPU_ReadMem(4 bytes @ 0xE0001000) (0001ms, 5464ms total)
T69B0 005:815 JLINK_IsHalted() -- CPU_ReadMem(2 bytes @ 0x20000000)  returns TRUE (0003ms, 5467ms total)
T69B0 005:818 JLINK_ReadReg(R15 (PC))  returns 0x20000000 (0000ms, 5464ms total)
T69B0 005:818 JLINK_ClrBPEx(BPHandle = 0x0000000B)  returns 0x00 (0000ms, 5464ms total)
T69B0 005:818 JLINK_ReadReg(R0)  returns 0x00000000 (0000ms, 5464ms total)
T69B0 005:819 JLINK_WriteMem(0x20000234, 0x0DCC Bytes, ...) - Data: 70 29 00 20 C1 63 02 00 C9 63 02 00 CB 63 02 00 ... -- CPU_WriteMem(3532 bytes @ 0x20000234)  returns 0xDCC (0018ms, 5482ms total)
T69B0 005:837 JLINK_WriteMem(0x20001000, 0x0234 Bytes, ...) - Data: 3C 36 36 68 3F 1D 3E 60 42 4E 40 36 36 68 3F 1D ... -- CPU_WriteMem(564 bytes @ 0x20001000)  returns 0x234 (0004ms, 5486ms total)
T69B0 005:841 JLINK_WriteReg(R0, 0x00026000)  returns 0x00 (0000ms, 5486ms total)
T69B0 005:841 JLINK_WriteReg(R1, 0x00001000)  returns 0x00 (0000ms, 5486ms total)
T69B0 005:841 JLINK_WriteReg(R2, 0x20000234)  returns 0x00 (0000ms, 5486ms total)
T69B0 005:841 JLINK_WriteReg(R3, 0x00000000)  returns 0x00 (0000ms, 5486ms total)
T69B0 005:841 JLINK_WriteReg(R4, 0x00000000)  returns 0x00 (0000ms, 5486ms total)
T69B0 005:841 JLINK_WriteReg(R5, 0x00000000)  returns 0x00 (0000ms, 5486ms total)
T69B0 005:841 JLINK_WriteReg(R6, 0x00000000)  returns 0x00 (0000ms, 5486ms total)
T69B0 005:841 JLINK_WriteReg(R7, 0x00000000)  returns 0x00 (0000ms, 5486ms total)
T69B0 005:841 JLINK_WriteReg(R8, 0x00000000)  returns 0x00 (0000ms, 5486ms total)
T69B0 005:841 JLINK_WriteReg(R9, 0x20000230)  returns 0x00 (0000ms, 5486ms total)
T69B0 005:841 JLINK_WriteReg(R10, 0x00000000)  returns 0x00 (0000ms, 5486ms total)
T69B0 005:841 JLINK_WriteReg(R11, 0x00000000)  returns 0x00 (0000ms, 5486ms total)
T69B0 005:841 JLINK_WriteReg(R12, 0x00000000)  returns 0x00 (0000ms, 5486ms total)
T69B0 005:841 JLINK_WriteReg(R13 (SP), 0x20002000)  returns 0x00 (0000ms, 5486ms total)
T69B0 005:841 JLINK_WriteReg(R14, 0x20000001)  returns 0x00 (0000ms, 5486ms total)
T69B0 005:841 JLINK_WriteReg(R15 (PC), 0x20000156)  returns 0x00 (0000ms, 5486ms total)
T69B0 005:841 JLINK_WriteReg(XPSR, 0x01000000)  returns 0x00 (0000ms, 5486ms total)
T69B0 005:841 JLINK_WriteReg(MSP, 0x20002000)  returns 0x00 (0000ms, 5486ms total)
T69B0 005:841 JLINK_WriteReg(PSP, 0x20002000)  returns 0x00 (0000ms, 5486ms total)
T69B0 005:841 JLINK_WriteReg(CFBP, 0x00000000)  returns 0x00 (0000ms, 5486ms total)
T69B0 005:841 JLINK_SetBPEx(Addr = 0x20000000, Type = 0xFFFFFFF2)  returns 0x0000000C (0000ms, 5486ms total)
T69B0 005:841 JLINK_Go() -- CPU_ReadMem(4 bytes @ 0xE0001000) (0002ms, 5488ms total)
T69B0 005:843 JLINK_IsHalted()  returns FALSE (0000ms, 5488ms total)
T69B0 005:850 JLINK_IsHalted()  returns FALSE (0000ms, 5488ms total)
T69B0 005:852 JLINK_IsHalted()  returns FALSE (0000ms, 5488ms total)
T69B0 005:854 JLINK_IsHalted()  returns FALSE (0000ms, 5488ms total)
T69B0 005:856 JLINK_IsHalted()  returns FALSE (0000ms, 5488ms total)
T69B0 005:858 JLINK_IsHalted()  returns FALSE (0000ms, 5488ms total)
T69B0 005:862 JLINK_IsHalted()  returns FALSE (0000ms, 5488ms total)
T69B0 005:864 JLINK_IsHalted()  returns FALSE (0000ms, 5488ms total)
T69B0 005:866 JLINK_IsHalted()  returns FALSE (0000ms, 5488ms total)
T69B0 005:868 JLINK_IsHalted()  returns FALSE (0000ms, 5488ms total)
T69B0 005:870 JLINK_IsHalted()  returns FALSE (0000ms, 5488ms total)
T69B0 005:872 JLINK_IsHalted()  returns FALSE (0000ms, 5488ms total)
T69B0 005:874 JLINK_IsHalted()  returns FALSE (0000ms, 5488ms total)
T69B0 005:876 JLINK_IsHalted()  returns FALSE (0000ms, 5488ms total)
T69B0 005:883 JLINK_IsHalted()  returns FALSE (0000ms, 5488ms total)
T69B0 005:885 JLINK_IsHalted()  returns FALSE (0000ms, 5488ms total)
T69B0 005:887 JLINK_IsHalted()  returns FALSE (0000ms, 5488ms total)
T69B0 005:889 JLINK_IsHalted()  returns FALSE (0000ms, 5488ms total)
T69B0 005:891 JLINK_IsHalted()  returns FALSE (0000ms, 5488ms total)
T69B0 005:895 JLINK_IsHalted()  returns FALSE (0000ms, 5488ms total)
T69B0 005:897 JLINK_IsHalted()  returns FALSE (0000ms, 5488ms total)
T69B0 005:899 JLINK_IsHalted()  returns FALSE (0000ms, 5488ms total)
T69B0 005:901 JLINK_IsHalted()  returns FALSE (0000ms, 5488ms total)
T69B0 005:903 JLINK_IsHalted()  returns FALSE (0000ms, 5488ms total)
T69B0 005:905 JLINK_IsHalted()  returns FALSE (0000ms, 5488ms total)
T69B0 005:907 JLINK_IsHalted()  returns FALSE (0000ms, 5488ms total)
T69B0 005:912 JLINK_IsHalted()  returns FALSE (0000ms, 5488ms total)
T69B0 005:914 JLINK_IsHalted() -- CPU_ReadMem(2 bytes @ 0x20000000)  returns TRUE (0003ms, 5491ms total)
T69B0 005:917 JLINK_ReadReg(R15 (PC))  returns 0x20000000 (0000ms, 5488ms total)
T69B0 005:917 JLINK_ClrBPEx(BPHandle = 0x0000000C)  returns 0x00 (0000ms, 5488ms total)
T69B0 005:917 JLINK_ReadReg(R0)  returns 0x00000000 (0000ms, 5488ms total)
T69B0 005:917 JLINK_WriteMem(0x20000234, 0x0DCC Bytes, ...) - Data: 01 D0 00 20 70 47 01 20 70 47 C3 68 8B 42 06 D8 ... -- CPU_WriteMem(3532 bytes @ 0x20000234)  returns 0xDCC (0019ms, 5507ms total)
T69B0 005:936 JLINK_WriteMem(0x20001000, 0x0234 Bytes, ...) - Data: 7C BD 00 00 00 00 00 20 7C 01 00 20 F0 DA 02 00 ... -- CPU_WriteMem(564 bytes @ 0x20001000)  returns 0x234 (0003ms, 5510ms total)
T69B0 005:939 JLINK_WriteReg(R0, 0x00027000)  returns 0x00 (0000ms, 5510ms total)
T69B0 005:939 JLINK_WriteReg(R1, 0x00001000)  returns 0x00 (0000ms, 5510ms total)
T69B0 005:939 JLINK_WriteReg(R2, 0x20000234)  returns 0x00 (0000ms, 5510ms total)
T69B0 005:939 JLINK_WriteReg(R3, 0x00000000)  returns 0x00 (0000ms, 5510ms total)
T69B0 005:939 JLINK_WriteReg(R4, 0x00000000)  returns 0x00 (0000ms, 5510ms total)
T69B0 005:939 JLINK_WriteReg(R5, 0x00000000)  returns 0x00 (0000ms, 5510ms total)
T69B0 005:939 JLINK_WriteReg(R6, 0x00000000)  returns 0x00 (0000ms, 5510ms total)
T69B0 005:939 JLINK_WriteReg(R7, 0x00000000)  returns 0x00 (0000ms, 5510ms total)
T69B0 005:939 JLINK_WriteReg(R8, 0x00000000)  returns 0x00 (0000ms, 5510ms total)
T69B0 005:939 JLINK_WriteReg(R9, 0x20000230)  returns 0x00 (0000ms, 5510ms total)
T69B0 005:939 JLINK_WriteReg(R10, 0x00000000)  returns 0x00 (0000ms, 5510ms total)
T69B0 005:939 JLINK_WriteReg(R11, 0x00000000)  returns 0x00 (0000ms, 5510ms total)
T69B0 005:939 JLINK_WriteReg(R12, 0x00000000)  returns 0x00 (0000ms, 5510ms total)
T69B0 005:939 JLINK_WriteReg(R13 (SP), 0x20002000)  returns 0x00 (0000ms, 5510ms total)
T69B0 005:939 JLINK_WriteReg(R14, 0x20000001)  returns 0x00 (0000ms, 5510ms total)
T69B0 005:939 JLINK_WriteReg(R15 (PC), 0x20000156)  returns 0x00 (0000ms, 5510ms total)
T69B0 005:939 JLINK_WriteReg(XPSR, 0x01000000)  returns 0x00 (0000ms, 5510ms total)
T69B0 005:939 JLINK_WriteReg(MSP, 0x20002000)  returns 0x00 (0000ms, 5510ms total)
T69B0 005:939 JLINK_WriteReg(PSP, 0x20002000)  returns 0x00 (0000ms, 5510ms total)
T69B0 005:939 JLINK_WriteReg(CFBP, 0x00000000)  returns 0x00 (0000ms, 5510ms total)
T69B0 005:939 JLINK_SetBPEx(Addr = 0x20000000, Type = 0xFFFFFFF2)  returns 0x0000000D (0000ms, 5510ms total)
T69B0 005:939 JLINK_Go() -- CPU_ReadMem(4 bytes @ 0xE0001000) (0002ms, 5512ms total)
T69B0 005:941 JLINK_IsHalted()  returns FALSE (0001ms, 5513ms total)
T69B0 005:946 JLINK_IsHalted()  returns FALSE (0000ms, 5512ms total)
T69B0 005:948 JLINK_IsHalted()  returns FALSE (0000ms, 5512ms total)
T69B0 005:950 JLINK_IsHalted()  returns FALSE (0000ms, 5512ms total)
T69B0 005:952 JLINK_IsHalted()  returns FALSE (0000ms, 5512ms total)
T69B0 005:954 JLINK_IsHalted()  returns FALSE (0000ms, 5512ms total)
T69B0 005:958 JLINK_IsHalted()  returns FALSE (0000ms, 5512ms total)
T69B0 005:960 JLINK_IsHalted()  returns FALSE (0000ms, 5512ms total)
T69B0 005:962 JLINK_IsHalted()  returns FALSE (0000ms, 5512ms total)
T69B0 005:964 JLINK_IsHalted()  returns FALSE (0000ms, 5512ms total)
T69B0 005:966 JLINK_IsHalted()  returns FALSE (0000ms, 5512ms total)
T69B0 005:968 JLINK_IsHalted()  returns FALSE (0000ms, 5512ms total)
T69B0 005:970 JLINK_IsHalted()  returns FALSE (0000ms, 5512ms total)
T69B0 005:974 JLINK_IsHalted()  returns FALSE (0000ms, 5512ms total)
T69B0 005:976 JLINK_IsHalted()  returns FALSE (0000ms, 5512ms total)
T69B0 005:978 JLINK_IsHalted()  returns FALSE (0000ms, 5512ms total)
T69B0 005:980 JLINK_IsHalted()  returns FALSE (0000ms, 5512ms total)
T69B0 005:982 JLINK_IsHalted()  returns FALSE (0000ms, 5512ms total)
T69B0 005:984 JLINK_IsHalted()  returns FALSE (0000ms, 5512ms total)
T69B0 005:986 JLINK_IsHalted()  returns FALSE (0000ms, 5512ms total)
T69B0 005:990 JLINK_IsHalted()  returns FALSE (0000ms, 5512ms total)
T69B0 005:992 JLINK_IsHalted()  returns FALSE (0000ms, 5512ms total)
T69B0 005:994 JLINK_IsHalted()  returns FALSE (0000ms, 5512ms total)
T69B0 005:996 JLINK_IsHalted()  returns FALSE (0000ms, 5512ms total)
T69B0 005:998 JLINK_IsHalted()  returns FALSE (0000ms, 5512ms total)
T69B0 006:000 JLINK_IsHalted()  returns FALSE (0000ms, 5512ms total)
T69B0 006:002 JLINK_IsHalted()  returns FALSE (0000ms, 5512ms total)
T69B0 006:006 JLINK_IsHalted()  returns FALSE (0000ms, 5512ms total)
T69B0 006:008 JLINK_IsHalted()  returns FALSE (0000ms, 5512ms total)
T69B0 006:010 JLINK_IsHalted()  returns FALSE (0000ms, 5512ms total)
T69B0 006:012 JLINK_IsHalted() -- CPU_ReadMem(2 bytes @ 0x20000000)  returns TRUE (0003ms, 5515ms total)
T69B0 006:015 JLINK_ReadReg(R15 (PC))  returns 0x20000000 (0000ms, 5512ms total)
T69B0 006:015 JLINK_ClrBPEx(BPHandle = 0x0000000D)  returns 0x00 (0000ms, 5512ms total)
T69B0 006:015 JLINK_ReadReg(R0)  returns 0x00000000 (0000ms, 5512ms total)
T69B0 006:015 JLINK_WriteMem(0x20000234, 0x0DCC Bytes, ...) - Data: E8 F9 F5 E7 17 B0 BD E8 F0 8F 00 00 20 03 00 20 ... -- CPU_WriteMem(3532 bytes @ 0x20000234)  returns 0xDCC (0019ms, 5531ms total)
T69B0 006:034 JLINK_WriteMem(0x20001000, 0x0234 Bytes, ...) - Data: 0C 01 00 20 A4 08 00 20 F0 B5 87 B0 14 21 68 46 ... -- CPU_WriteMem(564 bytes @ 0x20001000)  returns 0x234 (0004ms, 5535ms total)
T69B0 006:038 JLINK_WriteReg(R0, 0x00028000)  returns 0x00 (0000ms, 5535ms total)
T69B0 006:038 JLINK_WriteReg(R1, 0x00001000)  returns 0x00 (0000ms, 5535ms total)
T69B0 006:038 JLINK_WriteReg(R2, 0x20000234)  returns 0x00 (0000ms, 5535ms total)
T69B0 006:038 JLINK_WriteReg(R3, 0x00000000)  returns 0x00 (0000ms, 5535ms total)
T69B0 006:038 JLINK_WriteReg(R4, 0x00000000)  returns 0x00 (0000ms, 5535ms total)
T69B0 006:038 JLINK_WriteReg(R5, 0x00000000)  returns 0x00 (0000ms, 5535ms total)
T69B0 006:038 JLINK_WriteReg(R6, 0x00000000)  returns 0x00 (0000ms, 5535ms total)
T69B0 006:038 JLINK_WriteReg(R7, 0x00000000)  returns 0x00 (0000ms, 5535ms total)
T69B0 006:038 JLINK_WriteReg(R8, 0x00000000)  returns 0x00 (0000ms, 5535ms total)
T69B0 006:038 JLINK_WriteReg(R9, 0x20000230)  returns 0x00 (0000ms, 5535ms total)
T69B0 006:038 JLINK_WriteReg(R10, 0x00000000)  returns 0x00 (0000ms, 5535ms total)
T69B0 006:038 JLINK_WriteReg(R11, 0x00000000)  returns 0x00 (0000ms, 5535ms total)
T69B0 006:038 JLINK_WriteReg(R12, 0x00000000)  returns 0x00 (0000ms, 5535ms total)
T69B0 006:038 JLINK_WriteReg(R13 (SP), 0x20002000)  returns 0x00 (0000ms, 5535ms total)
T69B0 006:038 JLINK_WriteReg(R14, 0x20000001)  returns 0x00 (0000ms, 5535ms total)
T69B0 006:038 JLINK_WriteReg(R15 (PC), 0x20000156)  returns 0x00 (0000ms, 5535ms total)
T69B0 006:038 JLINK_WriteReg(XPSR, 0x01000000)  returns 0x00 (0000ms, 5535ms total)
T69B0 006:038 JLINK_WriteReg(MSP, 0x20002000)  returns 0x00 (0000ms, 5535ms total)
T69B0 006:038 JLINK_WriteReg(PSP, 0x20002000)  returns 0x00 (0000ms, 5535ms total)
T69B0 006:038 JLINK_WriteReg(CFBP, 0x00000000)  returns 0x00 (0000ms, 5535ms total)
T69B0 006:038 JLINK_SetBPEx(Addr = 0x20000000, Type = 0xFFFFFFF2)  returns 0x0000000E (0000ms, 5535ms total)
T69B0 006:038 JLINK_Go() -- CPU_ReadMem(4 bytes @ 0xE0001000) (0002ms, 5537ms total)
T69B0 006:040 JLINK_IsHalted()  returns FALSE (0000ms, 5537ms total)
T69B0 006:046 JLINK_IsHalted()  returns FALSE (0000ms, 5537ms total)
T69B0 006:048 JLINK_IsHalted()  returns FALSE (0000ms, 5537ms total)
T69B0 006:050 JLINK_IsHalted()  returns FALSE (0000ms, 5537ms total)
T69B0 006:055 JLINK_IsHalted()  returns FALSE (0000ms, 5537ms total)
T69B0 006:057 JLINK_IsHalted()  returns FALSE (0000ms, 5537ms total)
T69B0 006:059 JLINK_IsHalted()  returns FALSE (0000ms, 5537ms total)
T69B0 006:061 JLINK_IsHalted()  returns FALSE (0000ms, 5537ms total)
T69B0 006:063 JLINK_IsHalted()  returns FALSE (0000ms, 5537ms total)
T69B0 006:065 JLINK_IsHalted()  returns FALSE (0000ms, 5537ms total)
T69B0 006:071 JLINK_IsHalted()  returns FALSE (0000ms, 5537ms total)
T69B0 006:073 JLINK_IsHalted()  returns FALSE (0000ms, 5537ms total)
T69B0 006:075 JLINK_IsHalted()  returns FALSE (0000ms, 5537ms total)
T69B0 006:077 JLINK_IsHalted()  returns FALSE (0000ms, 5537ms total)
T69B0 006:079 JLINK_IsHalted()  returns FALSE (0000ms, 5537ms total)
T69B0 006:081 JLINK_IsHalted()  returns FALSE (0000ms, 5537ms total)
T69B0 006:085 JLINK_IsHalted()  returns FALSE (0000ms, 5537ms total)
T69B0 006:087 JLINK_IsHalted()  returns FALSE (0000ms, 5537ms total)
T69B0 006:089 JLINK_IsHalted()  returns FALSE (0000ms, 5537ms total)
T69B0 006:091 JLINK_IsHalted()  returns FALSE (0000ms, 5537ms total)
T69B0 006:093 JLINK_IsHalted()  returns FALSE (0000ms, 5537ms total)
T69B0 006:095 JLINK_IsHalted()  returns FALSE (0000ms, 5537ms total)
T69B0 006:097 JLINK_IsHalted()  returns FALSE (0000ms, 5537ms total)
T69B0 006:101 JLINK_IsHalted()  returns FALSE (0000ms, 5537ms total)
T69B0 006:103 JLINK_IsHalted()  returns FALSE (0000ms, 5537ms total)
T69B0 006:105 JLINK_IsHalted()  returns FALSE (0000ms, 5537ms total)
T69B0 006:107 JLINK_IsHalted()  returns FALSE (0000ms, 5537ms total)
T69B0 006:109 JLINK_IsHalted()  returns FALSE (0000ms, 5537ms total)
T69B0 006:111 JLINK_IsHalted() -- CPU_ReadMem(2 bytes @ 0x20000000)  returns TRUE (0002ms, 5539ms total)
T69B0 006:113 JLINK_ReadReg(R15 (PC))  returns 0x20000000 (0000ms, 5537ms total)
T69B0 006:113 JLINK_ClrBPEx(BPHandle = 0x0000000E)  returns 0x00 (0000ms, 5537ms total)
T69B0 006:113 JLINK_ReadReg(R0)  returns 0x00000000 (0000ms, 5537ms total)
T69B0 006:114 JLINK_WriteMem(0x20000234, 0x0DCC Bytes, ...) - Data: 01 EB 81 00 02 EB 80 02 60 88 52 89 C3 1C 93 42 ... -- CPU_WriteMem(3532 bytes @ 0x20000234)  returns 0xDCC (0018ms, 5555ms total)
T69B0 006:132 JLINK_WriteMem(0x20001000, 0x0234 Bytes, ...) - Data: FD F7 46 FF 00 25 E9 E7 3A 46 29 79 50 46 FD F7 ... -- CPU_WriteMem(564 bytes @ 0x20001000)  returns 0x234 (0003ms, 5558ms total)
T69B0 006:135 JLINK_WriteReg(R0, 0x00029000)  returns 0x00 (0000ms, 5558ms total)
T69B0 006:135 JLINK_WriteReg(R1, 0x00001000)  returns 0x00 (0000ms, 5558ms total)
T69B0 006:135 JLINK_WriteReg(R2, 0x20000234)  returns 0x00 (0000ms, 5558ms total)
T69B0 006:135 JLINK_WriteReg(R3, 0x00000000)  returns 0x00 (0000ms, 5558ms total)
T69B0 006:135 JLINK_WriteReg(R4, 0x00000000)  returns 0x00 (0000ms, 5558ms total)
T69B0 006:135 JLINK_WriteReg(R5, 0x00000000)  returns 0x00 (0000ms, 5558ms total)
T69B0 006:135 JLINK_WriteReg(R6, 0x00000000)  returns 0x00 (0000ms, 5558ms total)
T69B0 006:135 JLINK_WriteReg(R7, 0x00000000)  returns 0x00 (0000ms, 5558ms total)
T69B0 006:135 JLINK_WriteReg(R8, 0x00000000)  returns 0x00 (0000ms, 5558ms total)
T69B0 006:135 JLINK_WriteReg(R9, 0x20000230)  returns 0x00 (0000ms, 5558ms total)
T69B0 006:135 JLINK_WriteReg(R10, 0x00000000)  returns 0x00 (0000ms, 5558ms total)
T69B0 006:135 JLINK_WriteReg(R11, 0x00000000)  returns 0x00 (0000ms, 5558ms total)
T69B0 006:135 JLINK_WriteReg(R12, 0x00000000)  returns 0x00 (0000ms, 5558ms total)
T69B0 006:135 JLINK_WriteReg(R13 (SP), 0x20002000)  returns 0x00 (0001ms, 5559ms total)
T69B0 006:136 JLINK_WriteReg(R14, 0x20000001)  returns 0x00 (0000ms, 5559ms total)
T69B0 006:136 JLINK_WriteReg(R15 (PC), 0x20000156)  returns 0x00 (0000ms, 5559ms total)
T69B0 006:136 JLINK_WriteReg(XPSR, 0x01000000)  returns 0x00 (0000ms, 5559ms total)
T69B0 006:136 JLINK_WriteReg(MSP, 0x20002000)  returns 0x00 (0000ms, 5559ms total)
T69B0 006:136 JLINK_WriteReg(PSP, 0x20002000)  returns 0x00 (0000ms, 5559ms total)
T69B0 006:136 JLINK_WriteReg(CFBP, 0x00000000)  returns 0x00 (0000ms, 5559ms total)
T69B0 006:136 JLINK_SetBPEx(Addr = 0x20000000, Type = 0xFFFFFFF2)  returns 0x0000000F (0000ms, 5559ms total)
T69B0 006:136 JLINK_Go() -- CPU_ReadMem(4 bytes @ 0xE0001000) (0001ms, 5560ms total)
